n,Vin,Vout
0,0.05235390,0.05233515
1,0.10515701,0.10501064
2,0.15837096,0.15726575
3,0.21195532,0.20496312
4,0.26586768,0.24003540
5,0.32006356,0.27454302
6,0.37449646,0.32365206
7,0.42911780,0.37752298
8,0.48387691,0.32836130
9,0.53872114,0.48702267
10,0.59359586,0.54189610
11,0.64844435,0.59674436
12,0.70320785,0.54504490
13,0.75782567,0.70612568
14,0.81223524,0.76053524
15,0.86637199,0.81467199
16,0.92016953,0.76297200
17,0.97355980,0.92185980
18,1.02647257,0.97477251
19,1.07883656,1.02713656
20,1.13057816,0.97543651
21,1.18162262,1.12992263
22,1.23189378,1.18019366
23,1.28131378,1.22961366
24,1.32980394,1.17791355
25,1.37728393,1.32558382
26,1.42367268,1.37197256
27,1.46888804,1.41718793
28,1.51284695,1.36548781
29,1.55546582,1.50376570
30,1.59666049,1.54496038
31,1.63634646,1.58464634
32,1.67443895,1.53294623
33,1.71085298,1.65915287
34,1.74550402,1.69380391
35,1.77830732,1.72660720
36,1.80917919,1.67490709
37,1.83803630,1.78633618
38,1.86479604,1.81309593
39,1.88937747,1.83767736
40,1.91170025,1.78597724
41,1.93168616,1.87998605
42,1.94925833,1.89755821
43,1.96434224,1.91264212
44,1.97686541,1.86094201
45,1.98675787,1.93505776
46,1.99395239,1.94225228
47,1.99838495,1.94668484
48,1.99999452,1.89498472
49,1.99872363,1.94702351
50,1.99451864,1.94281852
51,1.98733020,1.93563008
52,1.97711289,1.88392997
53,1.96382618,1.91212606
54,1.94743431,1.89573419
55,1.92790639,1.87620628
56,1.90521729,1.82450616
57,1.87934744,1.82764733
58,1.85028303,1.79858291
59,1.81801653,1.76631641
60,1.78254688,1.71461630
61,1.74387944,1.69217932
62,1.70202637,1.65032625
63,1.65700710,1.60530698
64,1.60884881,1.55360687
65,1.55758524,1.50588512
66,1.50325835,1.45155823
67,1.44591820,1.39421809
68,1.38562226,1.34251797
69,1.32243621,1.27073610
70,1.25643444,1.20473433
71,1.18769956,1.13599944
72,1.11632240,1.08429933
73,1.04240227,0.99070221
74,0.96604753,0.91434753
75,0.88737440,0.83567441
76,0.80650795,0.78397441
77,0.72358167,0.67188168
78,0.63873816,0.58703816
79,0.55212724,0.50042814
80,0.46390745,0.44872940
81,0.37424597,0.32340974
82,0.28331676,0.24958871
83,0.19130199,0.18771411
84,0.09839121,0.09828475
85,0.00478154,0.00478061
86,-0.08932401,-0.08924452
87,-0.18371557,-0.18095210
88,-0.27817670,-0.25011098
89,-0.37248632,-0.32170966
90,-0.46641767,-0.41474256
91,-0.55973935,-0.50804007
92,-0.65221530,-0.45636109
93,-0.74360693,-0.69190693
94,-0.83367211,-0.78197211
95,-0.92216587,-0.87046587
96,-1.00884259,-0.81876588
97,-1.09345520,-1.04175520
98,-1.17575622,-1.12405610
99,-1.25549841,-1.20379841
100,-1.33243668,-1.15209842
101,-1.40632737,-1.35462725
102,-1.47692978,-1.42522967
103,-1.54400730,-1.49230719
104,-1.60732770,-1.44060707
105,-1.66666484,-1.61496472
106,-1.72179830,-1.67009819
107,-1.77251542,-1.72081530
108,-1.81861210,-1.66911519
109,-1.85989285,-1.80819273
110,-1.89617312,-1.84447300
111,-1.92727876,-1.87557864
112,-1.95304811,-1.82387853
113,-1.97333229,-1.92163217
114,-1.98799634,-1.93629622
115,-1.99691999,-1.94521987
116,-1.99999869,-1.89351976
117,-1.99714422,-1.94544411
118,-1.98828566,-1.93658555
119,-1.97337008,-1.92166996
120,-1.95236337,-1.86996984
121,-1.92525041,-1.87355030
122,-1.89203680,-1.84033668
123,-1.85274851,-1.80104840
124,-1.80743194,-1.74934828
125,-1.75615633,-1.70445621
126,-1.69901204,-1.64731193
127,-1.63611162,-1.58441150
128,-1.56759048,-1.53271139
129,-1.49360681,-1.44190669
130,-1.41434050,-1.36264038
131,-1.32999539,-1.27829528
132,-1.24079716,-1.22659516
133,-1.14699304,-1.09529293
134,-1.04885375,-0.99715370
135,-0.94667065,-0.89497066
136,-0.84075540,-0.84327066
137,-0.73144156,-0.67974156
138,-0.61908048,-0.56738055
139,-0.50404406,-0.45234987
140,-0.38672093,-0.40062988
141,-0.26751554,-0.24082653
142,-0.14684957,-0.14613113
143,-0.02515787,-0.02515216
144,0.09711295,0.09700564
145,0.21950318,0.21075314
146,0.34154454,0.29276195
147,0.46276176,0.41109043
148,0.58267176,0.36040285
149,0.70078826,0.64908826
150,0.81662363,0.76492363
151,0.92968851,0.87798852
152,1.03949714,0.82628852
153,1.14556658,1.09386647
154,1.24742091,1.19572091
155,1.34459388,1.29289377
156,1.43662894,1.24119365
157,1.52308333,1.47138321
158,1.60353112,1.55183101
159,1.67756319,1.62586308
160,1.74479127,1.57416296
161,1.80485058,1.75315046
162,1.85740054,1.80570042
163,1.90212822,1.85042810
164,1.93875051,1.79872799
165,1.96701539,1.91531527
166,1.98670471,1.93500459
167,1.99763584,1.94593573
168,1.99966311,1.89423561
169,1.99268007,1.94097996
170,1.97662091,1.92492080
171,1.95146060,1.89976048
172,1.91721845,1.84806037
173,1.87395632,1.82225621
174,1.82178116,1.77008104
175,1.76084602,1.70914590
176,1.69134796,1.65744579
177,1.61353028,1.56183016
178,1.52768314,1.47598302
179,1.43413961,1.38243949
180,1.33327794,1.33073938
181,1.22552204,1.17382193
182,1.11133504,1.05963492
183,0.99122250,0.93952250
184,0.86573082,0.88782251
185,0.73544061,0.68374062
186,0.60096896,0.54926908
187,0.46296549,0.41129392
188,0.32211158,0.35938573
189,0.17911147,0.17676158
190,0.03469479,0.03468581
191,-0.11038704,-0.11020807
192,-0.25537020,-0.23420726
193,-0.39947662,-0.34810594
194,-0.54191828,-0.49021959
195,-0.68190688,-0.63020688
196,-0.81865299,-0.57850713
197,-0.95137036,-0.89967036
198,-1.07928610,-1.02758598
199,-1.20164001,-1.14993989
200,-1.31768966,-1.09824002
201,-1.42671990,-1.37501979
202,-1.52804267,-1.47634256
203,-1.62100244,-1.56930232
204,-1.70498478,-1.51760221
205,-1.77941632,-1.72771621
206,-1.84377050,-1.79207039
207,-1.89757431,-1.84587419
208,-1.94040906,-1.79417408
209,-1.97191548,-1.92021537
210,-1.99179792,-1.94009781
211,-1.99982655,-1.94812644
212,-1.99584103,-1.89642632
213,-1.97975230,-1.92805219
214,-1.95154524,-1.89984512
215,-1.91128016,-1.85958004
216,-1.85909486,-1.80787992
217,-1.79520357,-1.74350345
218,-1.71989846,-1.66819835
219,-1.63355076,-1.58185065
220,-1.53660643,-1.53015053
221,-1.42958748,-1.37788737
222,-1.31309140,-1.26139140
223,-1.18778396,-1.13608384
224,-1.05440032,-1.08438373
225,-0.91374224,-0.86204225
226,-0.76666856,-0.71496856
227,-0.61409587,-0.56239593
228,-0.45699340,-0.51069510
229,-0.29637194,-0.25750449
230,-0.13328324,-0.13285357
231,0.03118649,0.03117883
232,0.19592923,0.19310080
233,0.35981673,0.30960459
234,0.52170819,0.47001112
235,0.68046391,0.62876391
236,0.83494753,0.57706416
237,0.98403490,0.93233490
238,1.12662745,1.07492733
239,1.26165533,1.20995522
240,1.38808668,1.15825510
241,1.50493979,1.45323968
242,1.61128736,1.55958724
243,1.70626605,1.65456593
244,1.78908277,1.60286582
245,1.85902584,1.80732572
246,1.91546810,1.86376798
247,1.95787466,1.90617454
248,1.98581004,1.85447443
249,1.99894154,1.94724143
250,1.99704516,1.94534504
251,1.98000884,1.92830873
252,1.94783580,1.87660861
253,1.90064704,1.84894693
254,1.83868182,1.78698170
255,1.76229858,1.71059847
256,1.67197561,1.65889835
257,1.56830621,1.51660609
258,1.45199931,1.40029919
259,1.32387602,1.27217591
260,1.18486118,1.22047591
261,1.03598201,0.98428196
262,0.87836128,0.82666129
263,0.71320558,0.66150558
264,0.54180121,0.60980558
265,0.36550567,0.31500712
266,0.18573147,0.18276754
267,0.00394114,0.00394037
268,-0.17836438,-0.17739618
269,-0.35966352,-0.30945992
270,-0.53842103,-0.48672259
271,-0.71310115,-0.66140115
272,-0.88218635,-0.60970122
273,-1.04418373,-0.99248368
274,-1.19764721,-1.14594710
275,-1.34117901,-1.28947890
276,-1.47345412,-1.23777890
277,-1.59323096,-1.54153085
278,-1.69935751,-1.64765739
279,-1.79079080,-1.73909068
280,-1.86660707,-1.68739057
281,-1.92600703,-1.87430692
282,-1.96833193,-1.91663182
283,-1.99306917,-1.94136906
284,-1.99985886,-1.88966894
285,-1.98850119,-1.93680108
286,-1.95896137,-1.90726125
287,-1.91137254,-1.85967243
288,-1.84603584,-1.80797231
289,-1.76342440,-1.71172428
290,-1.66417897,-1.61247885
291,-1.54910254,-1.49740243
292,-1.41916311,-1.44570231
293,-1.27548015,-1.22378004
294,-1.11931610,-1.06761599
295,-0.95207483,-0.90037483
296,-0.77528220,-0.84867483
297,-0.59057236,-0.53887260
298,-0.39968392,-0.34831062
299,-0.20443425,-0.19890083
300,-0.00670232,-0.00675634
301,0.19157755,0.18795595
302,0.38844568,0.33724838
303,0.58193618,0.53023648
304,0.77008557,0.47854993
305,0.95096439,0.89926440
306,1.12269652,1.07099652
307,1.28346992,1.23176980
308,1.43156612,1.18006968
309,1.56537926,1.51367915
310,1.68342626,1.63172615
311,1.78437316,1.73267305
312,1.86705005,1.68097293
313,1.93046117,1.87876105
314,1.97380412,1.92210400
315,1.99647975,1.94477963
316,1.99810028,1.89307952
317,1.97849965,1.92679954
318,1.93773675,1.88603663
319,1.87610042,1.82440031
320,1.79410911,1.77270019
321,1.69250703,1.64080691
322,1.57226503,1.52056491
323,1.43456841,1.38286829
324,1.28080642,1.33116817
325,1.11256790,1.06086779
326,0.93161893,0.87991893
327,0.73988456,0.68818456
328,0.53944027,0.63648456
329,0.33248055,0.28481272
330,0.12129509,0.12102313
331,-0.09174444,-0.09165717
332,-0.30422178,-0.26777160
333,-0.51370329,-0.46200728
334,-0.71775472,-0.66605473
335,-0.91398102,-0.86228102
336,-1.10005450,-0.81058103
337,-1.27373326,-1.22203314
338,-1.43289924,-1.38119912
339,-1.57558453,-1.52388442
340,-1.69998956,-1.47218430
341,-1.80451655,-1.75281644
342,-1.88778424,-1.83608413
343,-1.94865358,-1.89695346
344,-1.98624396,-1.84525335
345,-1.99994552,-1.94824541
346,-1.98943388,-1.93773377
347,-1.95467663,-1.90297651
348,-1.89593947,-1.85127640
349,-1.81378710,-1.76208699
350,-1.70907867,-1.65737855
351,-1.58296657,-1.53126645
352,-1.43688238,-1.47956634
353,-1.27252090,-1.22082078
354,-1.09183121,-1.04013109
355,-0.89698786,-0.84528786
356,-0.69036543,-0.79358786
357,-0.47452152,-0.42283970
358,-0.25215626,-0.23226663
359,-0.02607895,-0.02607296
360,0.20081523,0.20016709
361,0.42559332,0.37401381
362,0.64532214,0.59362215
363,0.85709608,0.80539608
364,1.05808687,0.75369608
365,1.24558187,1.19388175
366,1.41701210,1.36531198
367,1.56999910,1.51829898
368,1.70238793,1.46659887
369,1.81227279,1.76057267
370,1.89803457,1.84633446
371,1.95836449,1.90666437
372,1.99228346,1.85496426
373,1.99916482,1.94746470
374,1.97874534,1.92704523
375,1.93113554,1.87943542
376,1.85682333,1.82773530
377,1.75667048,1.70497036
378,1.63191092,1.58021080
379,1.48413455,1.43243444
380,1.31526864,1.38073432
381,1.12756264,1.07586253
382,0.92355400,0.87185401
383,0.70603442,0.65433443
384,0.47802392,0.60263437
385,0.24272053,0.22661690
386,0.00345597,0.00345530
387,-0.23633932,-0.22255340
388,-0.47319624,-0.32778728
389,-0.70365715,-0.65195715
390,-0.92431551,-0.87261552
391,-1.13187861,-1.08017850
392,-1.32321656,-1.02847838
393,-1.49540198,-1.44370186
394,-1.64576674,-1.59406662
395,-1.77194321,-1.72024310
396,-1.87189853,-1.66854298
397,-1.94397748,-1.89227736
398,-1.98692691,-1.93522680
399,-1.99992454,-1.94822443
400,-1.98259556,-1.89652431
401,-1.93502510,-1.88332498
402,-1.85776341,-1.80606329
403,-1.75182164,-1.70012152
404,-1.61866713,-1.64842141
405,-1.46020317,-1.40850306
406,-1.27874267,-1.22704256
407,-1.07698655,-1.02528656
408,-0.85797805,-0.97358656
409,-0.62505847,-0.57335854
410,-0.38182852,-0.33077565
411,-0.13208418,-0.13167365
412,0.12024189,0.12021833
413,0.37113008,0.32040203
414,0.61654913,0.56484920
415,0.85252076,0.80082077
416,1.07517433,0.74912077
417,1.28082526,1.22912526
418,1.46602476,1.41432464
419,1.62762749,1.57592738
420,1.76285315,1.52422726
421,1.86932409,1.81762397
422,1.94511461,1.89341450
423,1.98879611,1.93709600
424,1.99945879,1.88539588
425,1.97673821,1.92503810
426,1.92082763,1.86912751
427,1.83248103,1.78078091
428,1.71300912,1.72908080
429,1.56426883,1.51256871
430,1.38862598,1.33692586
431,1.18893242,1.13723230
432,0.96848673,1.08553219
433,0.73096389,0.67926389
434,0.48037443,0.42868894
435,0.22100094,0.21186553
436,-0.04269611,-0.04245929
437,-0.30613199,-0.26408252
438,-0.56467682,-0.51297736
439,-0.81375951,-0.76205951
440,-1.04892671,-0.71035951
441,-1.26592529,-1.21422529
442,-1.46080017,-1.40910006
443,-1.62994897,-1.57824886
444,-1.77019465,-1.52654874
445,-1.87886119,-1.82716107
446,-1.95381403,-1.90211391
447,-1.99351060,-1.94181049
448,-1.99704003,-1.89011037
449,-1.96414161,-1.91244149
450,-1.89522338,-1.84352326
451,-1.79135716,-1.73965704
452,-1.65427089,-1.68795693
453,-1.48632908,-1.43462896
454,-1.29048347,-1.23878336
455,-1.07023621,-1.01853621
456,-0.82958585,-0.96683621
457,-0.57293677,-0.52123719
458,-0.30504087,-0.26331678
459,-0.03091289,-0.03090532
460,0.24428461,0.22759469
461,0.51531553,0.46361929
462,0.77697003,0.72527003
463,1.02418745,0.97248745
464,1.25213301,0.92078745
465,1.45629692,1.40459681
466,1.63260329,1.58090317
467,1.77747667,1.72577655
468,1.88792193,1.67407644
469,1.96160042,1.90990031
470,1.99687171,1.94517159
471,1.99284077,1.94114065
472,1.94938409,1.88944054
473,1.86715972,1.81545961
474,1.74760878,1.69590867
475,1.59292638,1.54122627
476,1.40603435,1.48952615
477,1.19053507,1.13883495
478,0.95062959,0.89892960
479,0.69105512,0.63935512
480,0.41699740,0.58765501
481,0.13396822,0.13352720
482,-0.15228289,-0.15140229
483,-0.43588355,-0.38426453
484,-0.71098143,-0.33730066
485,-0.97184289,-0.92014289
486,-1.21297538,-1.16127539
487,-1.42926443,-1.37756431
488,-1.61606514,-1.32586420
489,-1.76930857,-1.71760845
490,-1.88560724,-1.83390713
491,-1.96232057,-1.91062045
492,-1.99762464,-1.85892034
493,-1.99056399,-1.93886387
494,-1.94107652,-1.88937640
495,-1.85001135,-1.79831123
496,-1.71911395,-1.74661112
497,-1.55100369,-1.49930358
498,-1.34913206,-1.29743195
499,-1.11770213,-1.06600201
500,-0.86159897,-1.01430190
501,-0.58629447,-0.53459471
502,-0.29771224,-0.25837258
503,-0.00212329,-0.00212288
504,0.29398775,0.25637713
505,0.58408678,0.53238708
506,0.86171186,0.81001186
507,1.12061954,1.06891942
508,1.35494733,1.01721931
509,1.55932856,1.50762844
510,1.72902226,1.67732215
511,1.86004078,1.80834067
512,1.94923401,1.75664055
513,1.99437511,1.94267499
514,1.99422622,1.94252610
515,1.94857132,1.89687121
516,1.85823870,1.84517109
517,1.72508729,1.67338717
518,1.55197942,1.50027931
519,1.34273076,1.29103065
520,1.10201705,1.23933053
521,0.83528811,0.78358811
522,0.54865277,0.49695382
523,0.24872091,0.23025283
524,-0.05752557,-0.02824718
525,-0.36289284,-0.31251845
526,-0.66016614,-0.60846615
527,-0.94225782,-0.89055783
528,-1.20237947,-0.83885783
529,-1.43422747,-1.38252735
530,-1.63211834,-1.58041823
531,-1.79113674,-1.73943663
532,-1.90727448,-1.68773651
533,-1.97752368,-1.92582357
534,-1.99996614,-1.94826603
535,-1.97383440,-1.92213428
536,-1.89953816,-1.87043417
537,-1.77867341,-1.72697330
538,-1.61398721,-1.56228709
539,-1.40932941,-1.35762930
540,-1.16956723,-1.30592918
541,-0.90048301,-0.84878302
542,-0.60862029,-0.55692035
543,-0.30114698,-0.26064745
544,0.01431542,-0.03078157
545,0.32990143,0.28261453
546,0.63767445,0.58597445
547,0.92982745,0.87812746
548,1.19890356,0.82642746
549,1.43796754,1.38626742
550,1.64079106,1.58909094
551,1.80203533,1.75033522
552,1.91738057,1.69863510
553,1.98365295,1.93195283
554,1.99892473,1.94722462
555,1.96256924,1.91086912
556,1.87529719,1.85916901
557,1.73914671,1.68744659
558,1.55744743,1.50574732
559,1.33475196,1.28305185
560,1.07671428,1.23135185
561,0.78996527,0.73826528
562,0.48195168,0.43026534
563,0.16072507,0.15951897
564,-0.16524494,-0.09898104
565,-0.48729151,-0.43560264
566,-0.79680341,-0.74510342
567,-1.08543348,-1.03373337
568,-1.34532821,-0.98203331
569,-1.56936324,-1.51766312
570,-1.75132465,-1.69962454
571,-1.88609087,-1.83439076
572,-1.96979356,-1.78269064
573,-1.99992490,-1.94822478
574,-1.97542512,-1.92372501
575,-1.89672649,-1.84502637
576,-1.76575494,-1.79332626
577,-1.58589804,-1.53419793
578,-1.36191463,-1.31021452
579,-1.09982586,-1.04812574
580,-0.80676526,-0.99642569
581,-0.49077043,-0.43908015
582,-0.16058564,-0.15938576
583,0.17457490,0.17257698
584,0.50530523,0.29436040
585,0.82224870,0.77054870
586,1.11636508,1.06466508
587,1.37921154,1.32751143
588,1.60316741,1.27581131
589,1.78166533,1.72996521
590,1.90940237,1.85770226
591,1.98249090,1.93079078
592,1.99859059,1.87909067
593,1.95699370,1.90529358
594,1.85865784,1.80695772
595,1.70620048,1.65450037
596,1.50383019,1.60280025
597,1.25724614,1.20554602
598,0.97349125,0.92179126
599,0.66073930,0.60903931
600,0.32808220,0.55733877
601,-0.01472744,-0.01472442
602,-0.35758215,-0.30749965
603,-0.69029421,-0.63859421
604,-1.00289977,-0.58689451
605,-1.28598046,-1.23428035
606,-1.53092885,-1.47922873
607,-1.73021996,-1.67851985
608,-1.87766254,-1.62681973
609,-1.96858323,-1.91688311
610,-1.99999011,-1.94828999
611,-1.97068214,-1.91898203
612,-1.88129830,-1.86728191
613,-1.73432267,-1.68262255
614,-1.53401685,-1.48231673
615,-1.28631294,-1.23461294
616,-0.99865192,-1.18291283
617,-0.67974967,-0.62804967
618,-0.33935580,-0.29081318
619,0.01203689,0.01203446
620,0.36353564,0.27053446
621,0.70416194,0.65246195
622,1.02319574,0.97149575
623,1.31053615,1.25883603
624,1.55700409,1.20713592
625,1.75464499,1.70294487
626,1.89700651,1.84530640
627,1.97934210,1.92764199
628,1.99878502,1.87594187
629,1.95445776,1.90275764
630,1.84752488,1.79582477
631,1.68116283,1.62946272
632,1.46048367,1.57776260
633,1.19238758,1.14068747
634,0.88535708,0.83365709
635,0.54919553,0.49749658
636,0.19473612,0.44575340
637,-0.16654766,-0.16505396
638,-0.52286780,-0.47117060
639,-0.86251968,-0.81081969
640,-1.17426848,-0.75911969
641,-1.44772398,-1.39602387
642,-1.67368472,-1.62198460
643,-1.84448373,-1.79278362
644,-1.95422447,-1.74108350
645,-1.99900627,-1.94730616
646,-1.97707391,-1.92537379
647,-1.88889587,-1.83719575
648,-1.73717785,-1.78549564
649,-1.52677369,-1.47507358
650,-1.26455402,-1.21285403
651,-0.95919001,-0.90749002
652,-0.62087512,-0.85579002
653,-0.26099226,-0.23725730
654,0.10824922,0.10808434
655,0.47426999,0.42258835
656,0.82450378,0.37222621
657,1.14684486,1.09514475
658,1.43007016,1.37837005
659,1.66423559,1.61253548
660,1.84102726,1.56083536
661,1.95408857,1.90238845
662,1.99923193,1.94753182
663,1.97461534,1.92291522
664,1.88082922,1.87121511
665,1.72089696,1.66919684
666,1.50020134,1.44850123
667,1.22628939,1.17458940
668,0.90864599,1.12288928
669,0.55836916,0.50666988
670,0.18778972,0.18460770
671,-0.18995763,-0.18653032
672,-0.56138259,-0.30305710
673,-0.91316569,-0.86146569
674,-1.23259246,-1.18089247
675,-1.50803280,-1.45633268
676,-1.72937107,-1.40463257
677,-1.88838661,-1.83668649
678,-1.97906661,-1.92736650
679,-1.99785829,-1.94615817
680,-1.94380152,-1.89445806
681,-1.81859577,-1.76689565
682,-1.62656093,-1.57486081
683,-1.37450194,-1.32280183
684,-1.07149255,-1.27110171
685,-0.72852486,-0.67682487
686,-0.35814944,-0.30803302
687,0.02598537,0.02597941
688,0.40963280,0.28447944
689,0.77847445,0.72677445
690,1.11864305,1.06694293
691,1.41728866,1.36558855
692,1.66302729,1.31388843
693,1.84639835,1.79469824
694,1.96023917,1.90853906
695,1.99997747,1.94827735
696,1.96382976,1.89657724
697,1.85289180,1.80119169
698,1.67111802,1.61941791
699,1.42519844,1.37349832
700,1.12432563,1.32179821
701,0.77986264,0.72816265
702,0.40493870,0.35350567
703,0.01391296,0.01391012
704,-0.37813005,-0.24458990
705,-0.75597304,-0.70427305
706,-1.10485756,-1.05315745
707,-1.41106474,-1.35936463
708,-1.66245210,-1.30766451
709,-1.84897494,-1.79727483
710,-1.96306431,-1.91136420
711,-1.99995923,-1.94825912
712,-1.95791972,-1.89655900
713,-1.83832133,-1.78662121
714,-1.64562690,-1.59392679
715,-1.38724709,-1.33554697
716,-1.07323992,-1.28384686
717,-0.71595579,-0.66425580
718,-0.32955462,-0.28232142
719,0.07054750,0.07050912
720,0.46828899,0.32900912
721,0.84759247,0.79589248
722,1.19305980,1.14135969
723,1.49055743,1.43885732
724,1.72781694,1.38715720
725,1.89495206,1.84325194
726,1.98488224,1.93318212
727,1.99364817,1.94194806
728,1.92060351,1.89024794
729,1.76845968,1.71675956
730,1.54320800,1.49150789
731,1.25389862,1.20219851
732,0.91229153,1.15049839
733,0.53240442,0.48070636
734,0.12990531,0.12952742
735,-0.27848861,-0.24685566
736,-0.67571396,-0.35185021
737,-1.04507434,-0.99337441
738,-1.37094593,-1.31924582
739,-1.63943613,-1.58773601
740,-1.83901715,-1.53603590
741,-1.96099699,-1.90929687
742,-1.99992633,-1.94822621
743,-1.95385623,-1.90215611
744,-1.82445109,-1.85045600
745,-1.61695576,-1.56525564
